!This S-parameter file was generated as part of the OIDT. This project was completed as part of research conducted with my major professor and advisor, Prof. Ata Zadehgol, at the Applied and Computational Electromagnetics Signal and Power Integrity (ACEM-SPI) Lab while working toward the Ph.D. in Electrical Engineering at the University of Idaho, Moscow, Idaho, USA. This project was funded, in part, by the National Science Foundation (NSF); award #1816542 [1].
!Created with skrf (http://scikit-rf.org).
# Hz S RI R 50.0 
!freq ReS11 ImS11 ReS21 ImS21 ReS12 ImS12 ReS22 ImS22
100016761333389.94 0.007123297080397606 0.018558744341135025 0.560204029083252 -0.007080843672156334 0.560204029083252 -0.007080843672156334 0.0006125766085460782 0.009671023115515709
! Port Impedance 50.00000000000000 0.00000000000000 50.00000000000000 0.00000000000000
102874383085772.52 0.005227471236139536 0.025438152253627777 0.613113284111023 -0.007913941517472267 0.613113284111023 -0.007913941517472267 0.00029467418789863586 0.02051534503698349
! Port Impedance 50.00000000000000 0.00000000000000 50.00000000000000 0.00000000000000
105732004838155.08 0.0038748441729694605 0.033899690955877304 0.6713746786117554 -0.008478767238557339 0.6713746786117554 -0.008478767238557339 0.0004287507326807827 0.030853787437081337
! Port Impedance 50.00000000000000 0.00000000000000 50.00000000000000 0.00000000000000
108589626590537.66 0.0061960164457559586 0.026719139888882637 0.733174204826355 -0.008628414012491703 0.733174204826355 -0.008628414012491703 0.000907748588360846 0.02633129060268402
! Port Impedance 50.00000000000000 0.00000000000000 50.00000000000000 0.00000000000000
111447248342920.22 0.007779482752084732 0.022086726501584053 0.7966873645782471 -0.008251409977674484 0.7966873645782471 -0.008251409977674484 0.00154692935757339 0.021148599684238434
! Port Impedance 50.00000000000000 0.00000000000000 50.00000000000000 0.00000000000000
114304870095302.8 0.004692860413342714 0.033884767442941666 0.8582361936569214 -0.007267023902386427 0.8582361936569214 -0.007267023902386427 0.002135218819603324 0.023039313033223152
! Port Impedance 50.00000000000000 0.00000000000000 50.00000000000000 0.00000000000000
117162491847685.36 0.0056734816171228886 0.03130858764052391 0.911793053150177 -0.005721746478229761 0.911793053150177 -0.005721746478229761 0.0024218293838202953 0.023481277748942375
! Port Impedance 50.00000000000000 0.00000000000000 50.00000000000000 0.00000000000000
120020113600067.94 0.003412994323298335 0.06488463282585144 0.9491432905197144 -0.0037998794578015804 0.9491432905197144 -0.0037998794578015804 0.0016336527187377214 0.059394992887973785
! Port Impedance 50.00000000000000 0.00000000000000 50.00000000000000 0.00000000000000
122877735352450.5 0.003671179758384824 0.08818711340427399 0.9683910608291626 -0.0017935390351340175 0.9683910608291626 -0.0017935390351340175 0.0017256231512874365 0.0771653801202774
! Port Impedance 50.00000000000000 0.00000000000000 50.00000000000000 0.00000000000000
125735357104833.08 0.003929993137717247 0.05191440135240555 0.972450315952301 -0.0001027208345476538 0.972450315952301 -0.0001027208345476538 0.002296350197866559 0.046455372124910355
! Port Impedance 50.00000000000000 0.00000000000000 50.00000000000000 0.00000000000000
128592978857215.64 0.005758868530392647 0.041152920573949814 0.9592491984367371 0.0009007350308820605 0.9592491984367371 0.0009007350308820605 0.004715267568826675 0.032841652631759644
! Port Impedance 50.00000000000000 0.00000000000000 50.00000000000000 0.00000000000000
131450600609598.22 0.0023400350473821163 0.06655058264732361 0.9390475153923035 0.0011726375669240952 0.9390475153923035 0.0011726375669240952 0.0024815259966999292 0.0629212036728859
! Port Impedance 50.00000000000000 0.00000000000000 50.00000000000000 0.00000000000000
134308222361980.78 0.008453226648271084 0.03256583958864212 0.9219467043876648 0.0009603834478184581 0.9219467043876648 0.0009603834478184581 0.008286605589091778 0.026911139488220215
! Port Impedance 50.00000000000000 0.00000000000000 50.00000000000000 0.00000000000000
137165844114363.34 0.0037927948869764805 0.08521509915590286 0.9000830054283142 0.0006513219559565187 0.9000830054283142 0.0006513219559565187 0.0023087465669959784 0.08186721801757812
! Port Impedance 50.00000000000000 0.00000000000000 50.00000000000000 0.00000000000000
140023465866745.92 0.004593216814100742 0.07929370552301407 0.8845084309577942 0.0003955148276872933 0.8845084309577942 0.0003955148276872933 0.002681893529370427 0.0779825747013092
! Port Impedance 50.00000000000000 0.00000000000000 50.00000000000000 0.00000000000000
142881087619128.5 0.004852931015193462 0.055011194199323654 0.8731162548065186 8.024377166293561e-05 0.8731162548065186 8.024377166293561e-05 0.005485486704856157 0.04534120485186577
! Port Impedance 50.00000000000000 0.00000000000000 50.00000000000000 0.00000000000000
145738709371511.06 0.0016493606381118298 0.07104454189538956 0.8681725859642029 -8.06476891739294e-05 0.8681725859642029 -8.06476891739294e-05 0.005698729772120714 0.05341877415776253
! Port Impedance 50.00000000000000 0.00000000000000 50.00000000000000 0.00000000000000
148596331123893.62 0.004038768820464611 -0.16695508360862732 0.8548978567123413 -9.822446372709237e-06 0.8548978567123413 -9.822446372709237e-06 0.000214532163226977 0.16708184778690338
! Port Impedance 50.00000000000000 0.00000000000000 50.00000000000000 0.00000000000000
151453952876276.2 0.0004895261954516172 0.13240259885787964 0.8572248220443726 0.00019732516375370324 0.8572248220443726 0.00019732516375370324 0.0016086839605122805 0.14386774599552155
! Port Impedance 50.00000000000000 0.00000000000000 50.00000000000000 0.00000000000000
154311574628658.78 0.0026199223939329386 0.11696310341358185 0.8674662709236145 0.00035537019721232355 0.8674662709236145 0.00035537019721232355 0.0013859536265954375 0.1127890795469284
! Port Impedance 50.00000000000000 0.00000000000000 50.00000000000000 0.00000000000000
157169196381041.34 0.009256955236196518 -0.09080710262060165 0.888623833656311 0.0005743543151766062 0.888623833656311 0.0005743543151766062 0.00011217854626011103 0.09567064791917801
! Port Impedance 50.00000000000000 0.00000000000000 50.00000000000000 0.00000000000000
160026818133423.9 0.008843294344842434 -0.04971539229154587 0.9082480669021606 0.000628212874289602 0.9082480669021606 0.000628212874289602 0.0006905408226884902 0.043744493275880814
! Port Impedance 50.00000000000000 0.00000000000000 50.00000000000000 0.00000000000000
162884439885806.47 0.011353184469044209 -0.10164343565702438 0.9078130722045898 0.0004620346298906952 0.9078130722045898 0.0004620346298906952 0.0004852327983826399 0.09497568011283875
! Port Impedance 50.00000000000000 0.00000000000000 50.00000000000000 0.00000000000000
165742061638189.06 0.003001037985086441 0.20305997133255005 0.8903819918632507 0.00016483283252455294 0.8903819918632507 0.00016483283252455294 1.0137907338503283e-05 -0.1858387291431427
! Port Impedance 50.00000000000000 0.00000000000000 50.00000000000000 0.00000000000000
168599683390571.62 0.015692390501499176 -0.0914747416973114 0.8973969221115112 -4.542976603261195e-05 0.8973969221115112 -4.542976603261195e-05 0.0008594674291089177 -0.08580305427312851
! Port Impedance 50.00000000000000 0.00000000000000 50.00000000000000 0.00000000000000
171457305142954.2 0.012606821954250336 -0.13992109894752502 0.8928993940353394 -0.0001904692326206714 0.8928993940353394 -0.0001904692326206714 0.000928051711525768 -0.10681714862585068
! Port Impedance 50.00000000000000 0.00000000000000 50.00000000000000 0.00000000000000
174314926895336.75 0.0157972052693367 -0.18983788788318634 0.880943238735199 -0.0001157172373495996 0.880943238735199 -0.0001157172373495996 4.94861051265616e-05 -0.20965498685836792
! Port Impedance 50.00000000000000 0.00000000000000 50.00000000000000 0.00000000000000
177172548647719.34 0.020544622093439102 -0.10640516877174377 0.888549268245697 4.646159504773095e-05 0.888549268245697 4.646159504773095e-05 0.0017529194010421634 -0.06971582770347595
! Port Impedance 50.00000000000000 0.00000000000000 50.00000000000000 0.00000000000000
180030170400101.9 0.009252486750483513 -0.17373238503932953 0.8850539326667786 0.00021997629664838314 0.8850539326667786 0.00021997629664838314 0.0003079432644881308 -0.12958231568336487
! Port Impedance 50.00000000000000 0.00000000000000 50.00000000000000 0.00000000000000
182887792152484.47 0.017038943246006966 -0.09377187490463257 0.8924390077590942 0.0003952177648898214 0.8924390077590942 0.0003952177648898214 0.000785726064350456 -0.047506920993328094
! Port Impedance 50.00000000000000 0.00000000000000 50.00000000000000 0.00000000000000
185745413904867.03 0.0161625724285841 -0.10644461214542389 0.8861729502677917 0.0006386101595126092 0.8861729502677917 0.0006386101595126092 0.001159581122919917 -0.07154486328363419
! Port Impedance 50.00000000000000 0.00000000000000 50.00000000000000 0.00000000000000
188603035657249.6 0.027225110679864883 -0.11354916542768478 0.8835861682891846 0.0007327707135118544 0.8835861682891846 0.0007327707135118544 0.00034120044438168406 -0.09366420656442642
! Port Impedance 50.00000000000000 0.00000000000000 50.00000000000000 0.00000000000000
191460657409632.2 0.01673239655792713 -0.21009321510791779 0.858450710773468 0.000668670458253473 0.858450710773468 0.000668670458253473 0.000571162614505738 -0.21418677270412445
! Port Impedance 50.00000000000000 0.00000000000000 50.00000000000000 0.00000000000000
194318279162014.75 0.008741325698792934 -0.19087159633636475 0.8692866563796997 0.0006074410048313439 0.8692866563796997 0.0006074410048313439 0.0003095652791671455 -0.1649344265460968
! Port Impedance 50.00000000000000 0.00000000000000 50.00000000000000 0.00000000000000
197175900914397.3 0.026111682876944542 -0.12080615013837814 0.871112048625946 0.0005786147085018456 0.871112048625946 0.0005786147085018456 0.001496101962402463 -0.08548809587955475
! Port Impedance 50.00000000000000 0.00000000000000 50.00000000000000 0.00000000000000
200033522666779.88 0.018123403191566467 -0.1992788463830948 0.8633955121040344 0.0005300986231304705 0.8633955121040344 0.0005300986231304705 0.0005653116386383772 -0.16208097338676453
! Port Impedance 50.00000000000000 0.00000000000000 50.00000000000000 0.00000000000000
202891144419162.47 0.026174064725637436 -0.201118603348732 0.8611445426940918 0.0005651910905726254 0.8611445426940918 0.0005651910905726254 0.0009356260416097939 -0.15323804318904877
! Port Impedance 50.00000000000000 0.00000000000000 50.00000000000000 0.00000000000000
205748766171545.03 0.021580204367637634 -0.16136406362056732 0.8609444499015808 0.000693732756190002 0.8609444499015808 0.000693732756190002 0.0019699062686413527 -0.06660159677267075
! Port Impedance 50.00000000000000 0.00000000000000 50.00000000000000 0.00000000000000
208606387923927.6 0.022879084572196007 -0.16368532180786133 0.8599785566329956 0.0008286299416795373 0.8599785566329956 0.0008286299416795373 0.001133174286223948 -0.13226597011089325
! Port Impedance 50.00000000000000 0.00000000000000 50.00000000000000 0.00000000000000
211464009676310.16 0.020987173542380333 -0.2374023050069809 0.8446118831634521 0.0008560356218367815 0.8446118831634521 0.0008560356218367815 0.0003199464990757406 -0.24792420864105225
! Port Impedance 50.00000000000000 0.00000000000000 50.00000000000000 0.00000000000000
214321631428692.75 0.01216704212129116 -0.19116196036338806 0.862099289894104 0.0007698629051446915 0.862099289894104 0.0007698629051446915 0.0014818175695836544 -0.09522196650505066
! Port Impedance 50.00000000000000 0.00000000000000 50.00000000000000 0.00000000000000
217179253181075.3 0.023409783840179443 -0.2780073583126068 0.8464946746826172 0.0005454096826724708 0.8464946746826172 0.0005454096826724708 0.000994376023299992 -0.1947186440229416
! Port Impedance 50.00000000000000 0.00000000000000 50.00000000000000 0.00000000000000
220036874933457.88 0.011123635806143284 -0.18135136365890503 0.8691186904907227 0.0003684904077090323 0.8691186904907227 0.0003684904077090323 0.0005402208771556616 -0.14428319036960602
! Port Impedance 50.00000000000000 0.00000000000000 50.00000000000000 0.00000000000000
222894496685840.44 0.027276722714304924 -0.14121536910533905 0.882544219493866 0.0003115730360150337 0.882544219493866 0.0003115730360150337 6.796084198867902e-05 0.13106198608875275
! Port Impedance 50.00000000000000 0.00000000000000 50.00000000000000 0.00000000000000
225752118438223.03 0.017515083774924278 -0.17583373188972473 0.8758870959281921 0.0002661992621142417 0.8758870959281921 0.0002661992621142417 0.0002633716503623873 -0.12905824184417725
! Port Impedance 50.00000000000000 0.00000000000000 50.00000000000000 0.00000000000000
228609740190605.6 0.011570223607122898 -0.18919655680656433 0.8684876561164856 0.00015883964078966528 0.8684876561164856 0.00015883964078966528 0.0005896083312109113 -0.15476015210151672
! Port Impedance 50.00000000000000 0.00000000000000 50.00000000000000 0.00000000000000
231467361942988.16 0.010034452192485332 -0.19620543718338013 0.8726416826248169 6.557443703059107e-05 0.8726416826248169 6.557443703059107e-05 0.0003060045710299164 -0.14096464216709137
! Port Impedance 50.00000000000000 0.00000000000000 50.00000000000000 0.00000000000000
234324983695370.72 0.01778586022555828 -0.1493576169013977 0.8842381238937378 8.845581760397181e-05 0.8842381238937378 8.845581760397181e-05 0.0005381476366892457 -0.101142019033432
! Port Impedance 50.00000000000000 0.00000000000000 50.00000000000000 0.00000000000000
237182605447753.28 0.024725161492824554 -0.11947154253721237 0.8944839239120483 0.0001833470305427909 0.8944839239120483 0.0001833470305427909 0.0007267813780345023 -0.08615021407604218
! Port Impedance 50.00000000000000 0.00000000000000 50.00000000000000 0.00000000000000
240040227200135.88 0.01941397227346897 -0.26656219363212585 0.8647688031196594 0.0002525450836401433 0.8647688031196594 0.0002525450836401433 0.00023942704137880355 -0.2548353672027588
! Port Impedance 50.00000000000000 0.00000000000000 50.00000000000000 0.00000000000000
242897848952518.44 0.0024362183175981045 0.24380382895469666 0.8647473454475403 0.00029163507861085236 0.8647473454475403 0.00029163507861085236 0.0004902492510154843 -0.2096845656633377
! Port Impedance 50.00000000000000 0.00000000000000 50.00000000000000 0.00000000000000
245755470704901.0 0.020718906074762344 -0.1874406486749649 0.8860546350479126 0.0002962822327390313 0.8860546350479126 0.0002962822327390313 0.0005449744639918208 -0.18228758871555328
! Port Impedance 50.00000000000000 0.00000000000000 50.00000000000000 0.00000000000000
248613092457283.56 0.017083892598748207 -0.12554267048835754 0.8786838054656982 0.00020416623738128692 0.8786838054656982 0.00020416623738128692 0.0011431180173531175 -0.12338048964738846
! Port Impedance 50.00000000000000 0.00000000000000 50.00000000000000 0.00000000000000
251470714209666.16 0.005780419334769249 -0.22569361329078674 0.8627386093139648 7.726586773060262e-05 0.8627386093139648 7.726586773060262e-05 0.0010869256220757961 -0.2694404721260071
! Port Impedance 50.00000000000000 0.00000000000000 50.00000000000000 0.00000000000000
254328335962048.72 0.018904726952314377 -0.1408783495426178 0.8614529967308044 -6.55713738524355e-05 0.8614529967308044 -6.55713738524355e-05 0.000721779593732208 -0.17428511381149292
! Port Impedance 50.00000000000000 0.00000000000000 50.00000000000000 0.00000000000000
257185957714431.28 0.011456153355538845 -0.16678309440612793 0.8874516487121582 -0.0002164355100831017 0.8874516487121582 -0.0002164355100831017 0.0005754370940849185 -0.10359779745340347
! Port Impedance 50.00000000000000 0.00000000000000 50.00000000000000 0.00000000000000
260043579466813.84 0.00926258321851492 -0.13164065778255463 0.8732581734657288 -0.00030501934816129506 0.8732581734657288 -0.00030501934816129506 0.0007607208099216223 -0.09255661070346832
! Port Impedance 50.00000000000000 0.00000000000000 50.00000000000000 0.00000000000000
262901201219196.44 0.009059964679181576 -0.15064455568790436 0.8794070482254028 -0.0002859763626474887 0.8794070482254028 -0.0002859763626474887 0.0004939967766404152 -0.10305798798799515
! Port Impedance 50.00000000000000 0.00000000000000 50.00000000000000 0.00000000000000
265758822971579.0 2.6361092750448734e-05 0.2523626983165741 0.8437110185623169 -0.00019866111688315868 0.8437110185623169 -0.00019866111688315868 0.0006639794446527958 -0.2221948355436325
! Port Impedance 50.00000000000000 0.00000000000000 50.00000000000000 0.00000000000000
268616444723961.56 0.01105373166501522 -0.2418147623538971 0.8090179562568665 -4.6304630814120173e-05 0.8090179562568665 -4.6304630814120173e-05 0.0008368004346266389 -0.30267640948295593
! Port Impedance 50.00000000000000 0.00000000000000 50.00000000000000 0.00000000000000
271474066476344.12 0.004855829756706953 -0.22161585092544556 0.8216824531555176 9.059306466951966e-05 0.8216824531555176 9.059306466951966e-05 0.0008929757750593126 -0.21411514282226562
! Port Impedance 50.00000000000000 0.00000000000000 50.00000000000000 0.00000000000000
274331688228726.7 0.0007550804293714464 -0.1690874993801117 0.848563551902771 0.0001486959372414276 0.848563551902771 0.0001486959372414276 3.399731440367759e-06 -0.1676456332206726
! Port Impedance 50.00000000000000 0.00000000000000 50.00000000000000 0.00000000000000
277189309981109.28 0.00645520118996501 -0.19092069566249847 0.8205149173736572 0.0001622091804165393 0.8205149173736572 0.0001622091804165393 0.00047827884554862976 0.21988557279109955
! Port Impedance 50.00000000000000 0.00000000000000 50.00000000000000 0.00000000000000
280046931733491.84 0.012714446522295475 -0.2040136605501175 0.8271303772926331 6.772502820240334e-05 0.8271303772926331 6.772502820240334e-05 7.742035086266696e-05 0.2505139112472534
! Port Impedance 50.00000000000000 0.00000000000000 50.00000000000000 0.00000000000000
282904553485874.44 0.01856502890586853 -0.1638558954000473 0.8336912989616394 -8.891952165868133e-05 0.8336912989616394 -8.891952165868133e-05 0.0005378459463827312 -0.19933399558067322
! Port Impedance 50.00000000000000 0.00000000000000 50.00000000000000 0.00000000000000
285762175238257.0 0.0008088012109510601 -0.19654347002506256 0.8335558772087097 -0.00012339804379735142 0.8335558772087097 -0.00012339804379735142 0.00016333695384673774 -0.1984996348619461
! Port Impedance 50.00000000000000 0.00000000000000 50.00000000000000 0.00000000000000
288619796990639.56 0.006117844954133034 -0.16554847359657288 0.830071210861206 -0.00012978161976207048 0.830071210861206 -0.00012978161976207048 1.4544951227435376e-05 -0.254524290561676
! Port Impedance 50.00000000000000 0.00000000000000 50.00000000000000 0.00000000000000
291477418743022.1 0.020353365689516068 -0.12065467983484268 0.8174286484718323 -2.3251295715454035e-05 0.8174286484718323 -2.3251295715454035e-05 6.9321074988693e-05 0.21368196606636047
! Port Impedance 50.00000000000000 0.00000000000000 50.00000000000000 0.00000000000000
294335040495404.7 0.0043726046569645405 -0.15631654858589172 0.8366197347640991 0.00017463283438701183 0.8366197347640991 0.00017463283438701183 0.0004459907941054553 -0.15435905754566193
! Port Impedance 50.00000000000000 0.00000000000000 50.00000000000000 0.00000000000000
297192662247787.25 0.01229372899979353 -0.17308638989925385 0.8260789513587952 0.0003652641025837511 0.8260789513587952 0.0003652641025837511 4.096937118447386e-05 -0.1562337875366211
! Port Impedance 50.00000000000000 0.00000000000000 50.00000000000000 0.00000000000000
300050284000169.8 0.015160219743847847 -0.0953260138630867 0.8175262212753296 0.0003914059489034116 0.8175262212753296 0.0003914059489034116 9.899327415041625e-05 -0.14089061319828033
! Port Impedance 50.00000000000000 0.00000000000000 50.00000000000000 0.00000000000000
