!This S-parameter file was generated as part of the OIDT. This project was completed as part of research conducted with my major professor and advisor, Prof. Ata Zadehgol, at the Applied and Computational Electromagnetics Signal and Power Integrity (ACEM-SPI) Lab while working toward the Ph.D. in Electrical Engineering at the University of Idaho, Moscow, Idaho, USA. This project was funded, in part, by the National Science Foundation (NSF); award #1816542 [1].
!Created with skrf (http://scikit-rf.org).
# Hz S RI R 50.0 
!freq ReS11 ImS11 ReS12 ImS12 ReS13 ImS13
! ReS14 ImS14
! ReS21 ImS21 ReS22 ImS22 ReS23 ImS23
! ReS24 ImS24
! ReS31 ImS31 ReS32 ImS32 ReS33 ImS33
! ReS34 ImS34
! ReS41 ImS41 ReS42 ImS42 ReS43 ImS43
! ReS44 ImS44
!
100016761333389.94 -0.00014828135317657143 0.00031268410384655 0.13659077882766724 -0.0014408919960260391 0.8215572237968445 -0.04646163061261177 0.1637449711561203 -0.0016960198991000652
 0.1397414356470108 -0.0025456559378653765 -0.0001083681927411817 0.0006906453054398298 0.16809384524822235 -0.0026512620970606804 0.8206489086151123 -0.03801574185490608
 0.8265482187271118 -0.02630530670285225 0.17812421917915344 -0.002680001314729452 -4.235762025928125e-05 0.00012792770576197654 0.13946469128131866 -0.002360659185796976
 0.17868004739284515 -0.0010770221706479788 0.81839519739151 -0.029014958068728447 0.1405342072248459 -0.0006542679620906711 -0.0003879514988511801 0.0007767975912429392
! Port Impedance 50.00000000000000 0.00000000000000 50.00000000000000 0.00000000000000 50.00000000000000 0.00000000000000 50.00000000000000 0.00000000000000
102874383085772.52 -0.00014730365364812315 0.0003184785309713334 0.14652937650680542 -0.0007612213958054781 0.8229348659515381 -0.0350128635764122 0.1819399744272232 -0.001480679027736187
 0.15037842094898224 -0.002170773223042488 -0.00015935000556055456 0.0007735275430604815 0.1870443969964981 -0.0027448853943496943 0.8197256922721863 -0.037715546786785126
 0.8191218972206116 -0.010858120396733284 0.19679443538188934 -0.0021271046716719866 -0.00013838463928550482 0.00018544404883868992 0.15214748680591583 -0.002277826424688101
 0.19707077741622925 -0.000242297857766971 0.8128337264060974 -0.022077608853578568 0.15321721136569977 -0.0003606080135796219 -0.00041698411223478615 0.0007821618346497416
! Port Impedance 50.00000000000000 0.00000000000000 50.00000000000000 0.00000000000000 50.00000000000000 0.00000000000000 50.00000000000000 0.00000000000000
105732004838155.08 -0.00020547627354972064 0.00030336013878695667 0.15666861832141876 -0.0001701337459962815 0.8235331773757935 -0.028698084875941277 0.20150630176067352 -0.0012900427682325244
 0.16106069087982178 -0.0019309091148898005 -0.00019684035214595497 0.0008499493123963475 0.20795446634292603 -0.0029632283840328455 0.8177381157875061 -0.045424915850162506
 0.810762882232666 0.00047597376396879554 0.21676543354988098 -0.0016105411341413856 -0.0002531465142965317 0.0002681256737560034 0.1656111776828766 -0.0022816392593085766
 0.2166224867105484 0.0005412967875599861 0.8060543537139893 -0.02405569516122341 0.16644883155822754 -0.00016583313117735088 -0.0005656477878801525 0.0008112647337839007
! Port Impedance 50.00000000000000 0.00000000000000 50.00000000000000 0.00000000000000 50.00000000000000 0.00000000000000 50.00000000000000 0.00000000000000
108589626590537.66 -0.00017863833636511117 0.00027873486396856606 0.16689714789390564 0.0003411499783396721 0.8231210112571716 -0.03838719427585602 0.22259342670440674 -0.0010852239793166518
 0.17177599668502808 -0.001771455048583448 -0.00012726063141599298 0.0008544028969481587 0.2305353730916977 -0.0032755229622125626 0.8152973651885986 -0.045543376356363297
 0.801314651966095 -0.005798310041427612 0.23808471858501434 -0.0010798336006700993 -0.0001930525031639263 0.0002927569148596376 0.17971289157867432 -0.0023625255562365055
 0.23734675347805023 0.0012796313967555761 0.7982900142669678 -0.020069459453225136 0.18019267916679382 -1.6852693534019636e-06 -0.0006697973585687578 0.0008764961967244744
! Port Impedance 50.00000000000000 0.00000000000000 50.00000000000000 0.00000000000000 50.00000000000000 0.00000000000000 50.00000000000000 0.00000000000000
111447248342920.22 -0.00014394198660738766 0.0002706194936763495 0.17670667171478271 0.0008562164148315787 0.8222469687461853 -0.03751830384135246 0.24549992382526398 -0.0008954771910794079
 0.18230877816677094 -0.001634973450563848 -0.0001698032283456996 0.0009231080184690654 0.2546885311603546 -0.0036601887550204992 0.8124579191207886 -0.037838324904441833
 0.7909535765647888 -0.003369305282831192 0.26102128624916077 -0.0005773916491307318 -0.0001911633153213188 0.00030174353742040694 0.19394496083259583 -0.0024298394564539194
 0.25950387120246887 0.0019546705298125744 0.790216326713562 -0.008354666642844677 0.19419191777706146 0.00019476238230708987 -0.0005813331226818264 0.0008894996135495603
! Port Impedance 50.00000000000000 0.00000000000000 50.00000000000000 0.00000000000000 50.00000000000000 0.00000000000000 50.00000000000000 0.00000000000000
114304870095302.8 -0.00029131650808267295 0.00024295126786455512 0.18548361957073212 0.0012850735802203417 0.8208192586898804 -0.032223958522081375 0.2697443664073944 -0.0009039307478815317
 0.19199472665786743 -0.0016475836746394634 -0.0004552429891191423 0.001069559482857585 0.2803318202495575 -0.0042496672831475735 0.8083449602127075 -0.048123184591531754
 0.7799381017684937 0.0033799761440604925 0.285266637802124 -0.00031927021336741745 -0.0004474027664400637 0.0003813366638496518 0.20765595138072968 -0.002550862729549408
 0.2827867567539215 0.0023866184055805206 0.7813316583633423 -0.013942885212600231 0.20774225890636444 0.0002760187489911914 -0.0006962178158573806 0.0008582342998124659
! Port Impedance 50.00000000000000 0.00000000000000 50.00000000000000 0.00000000000000 50.00000000000000 0.00000000000000 50.00000000000000 0.00000000000000
117162491847685.36 -0.0003901320742443204 0.00023163063451647758 0.19318845868110657 0.001457327976822853 0.817947268486023 -0.049944739788770676 0.29460468888282776 -0.0012278682552278042
 0.20044110715389252 -0.0019386797212064266 -0.00046962869237177074 0.0010557181667536497 0.3072879910469055 -0.005159369204193354 0.8036895990371704 -0.05372419208288193
 0.7685195803642273 -0.013062641955912113 0.31025171279907227 -0.00042368719005025923 -0.00043899970478378236 0.00042113952804356813 0.22070685029029846 -0.0028866196516901255
 0.30661746859550476 0.0024153036065399647 0.7707599401473999 -0.01663197949528694 0.22040612995624542 9.031091030919924e-05 -0.0008949023904278874 0.000895205419510603
! Port Impedance 50.00000000000000 0.00000000000000 50.00000000000000 0.00000000000000 50.00000000000000 0.00000000000000 50.00000000000000 0.00000000000000
120020113600067.94 -0.00034460879396647215 0.00027086999034509063 0.19997818768024445 0.0014120533596724272 0.8139534592628479 -0.05515536293387413 0.32003656029701233 -0.0017561438726261258
 0.20773643255233765 -0.002393504371866584 -0.00026647697086445987 0.0010023603681474924 0.33521416783332825 -0.006264928262680769 0.798806369304657 -0.037642091512680054
 0.756337583065033 -0.01783398725092411 0.3359203636646271 -0.0007390639511868358 -0.00018325596465729177 0.0003729398304130882 0.23305168747901917 -0.0034024694468826056
 0.3309193253517151 0.002112120157107711 0.7593676447868347 0.0010496440809220076 0.232169970870018 -0.00023836390755604953 -0.00068569096038118 0.0009183300426229835
! Port Impedance 50.00000000000000 0.00000000000000 50.00000000000000 0.00000000000000 50.00000000000000 0.00000000000000 50.00000000000000 0.00000000000000
122877735352450.5 -0.0005038115195930004 0.00028047780506312847 0.20506329834461212 0.0013815478887408972 0.8085299134254456 -0.04321968927979469 0.34596750140190125 -0.0023036643397063017
 0.21340934932231903 -0.00276302732527256 -0.0006065151537768543 0.0011322052450850606 0.36327508091926575 -0.007277226075530052 0.7920898795127869 -0.04330235347151756
 0.7427663207054138 -0.004323029424995184 0.36207816004753113 -0.0010568613652139902 -0.00031361920991912484 0.0004230222257319838 0.24367590248584747 -0.003835480660200119
 0.35559892654418945 0.0016735506942495704 0.7468552589416504 -0.00248654093593359 0.24238771200180054 -0.00045165506890043616 -0.0005814293399453163 0.000827777199447155
! Port Impedance 50.00000000000000 0.00000000000000 50.00000000000000 0.00000000000000 50.00000000000000 0.00000000000000 50.00000000000000 0.00000000000000
125735357104833.08 -0.0008907821611501276 0.00029372915741987526 0.20745211839675903 0.0014967904426157475 0.7997255921363831 -0.058381177484989166 0.3718107044696808 -0.0027767943684011698
 0.2166103571653366 -0.0029436929617077112 -0.001012127147987485 0.0011768338736146688 0.39094722270965576 -0.007984708063304424 0.7835258841514587 -0.0449054054915905
 0.727581799030304 -0.016223320737481117 0.38820627331733704 -0.001303427736274898 -0.0005682167829945683 0.0005195597768761218 0.2515646517276764 -0.00399532588198781
 0.3803442716598511 0.0012161179911345243 0.7307802438735962 -0.008287055417895317 0.25012242794036865 -0.0004706977342721075 -0.0007936212350614369 0.0008256301516667008
! Port Impedance 50.00000000000000 0.00000000000000 50.00000000000000 0.00000000000000 50.00000000000000 0.00000000000000 50.00000000000000 0.00000000000000
128592978857215.64 -0.0010701462160795927 0.0003332507621962577 0.20738618075847626 0.0017107337480410933 0.7875730395317078 -0.0713360533118248 0.3971691429615021 -0.003071956802159548
 0.21725404262542725 -0.002962566912174225 -0.0008677304140292108 0.0010778773576021194 0.41866445541381836 -0.008271319791674614 0.7728930711746216 -0.009373278357088566
 0.7097814679145813 -0.029321298003196716 0.4142048954963684 -0.0013806747738271952 -0.0004223823198117316 0.0004316214472055435 0.2569531500339508 -0.003893313929438591
 0.4050056040287018 0.0008177926065400243 0.7125251889228821 0.01722581312060356 0.25529155135154724 -0.0003344786528032273 -0.0009159086621366441 0.0009164483635686338
! Port Impedance 50.00000000000000 0.00000000000000 50.00000000000000 0.00000000000000 50.00000000000000 0.00000000000000 50.00000000000000 0.00000000000000
131450600609598.22 -0.001158605213277042 0.0003152895369566977 0.2053297758102417 0.0020329488907009363 0.7721302509307861 -0.06640919297933578 0.42184579372406006 -0.0029512913897633553
 0.21555405855178833 -0.0027401545085012913 -0.0007423983188346028 0.0010980629594996572 0.44602978229522705 -0.007920511066913605 0.75779789686203 -0.007553711999207735
 0.6886856555938721 -0.03246929123997688 0.4397773742675781 -0.0010142185492441058 -0.0002548365155234933 0.0003519213350955397 0.25977835059165955 -0.0034996187314391136
 0.42928749322891235 0.000673594418913126 0.693024218082428 0.017138592898845673 0.25784966349601746 7.244922744575888e-05 -0.001059866277500987 0.0008107081521302462
! Port Impedance 50.00000000000000 0.00000000000000 50.00000000000000 0.00000000000000 50.00000000000000 0.00000000000000 50.00000000000000 0.00000000000000
134308222361980.78 -0.0014125928282737732 0.00032137209200300276 0.20086215436458588 0.002597214886918664 0.7506884932518005 -0.06258485466241837 0.4459986090660095 -0.0021938809659332037
 0.2114078253507614 -0.0021276019979268312 -0.0008870615856721997 0.001143898000009358 0.47179239988327026 -0.0066766925156116486 0.737464964389801 -0.03352423757314682
 0.6646792888641357 -0.04019218683242798 0.4644680619239807 1.8860715499613434e-05 -0.00042965152533724904 0.0003990251279901713 0.2591294050216675 -0.0026559161487966776
 0.4533061683177948 0.0010218472452834249 0.6683024764060974 -0.004852507263422012 0.25730079412460327 0.0009235783945769072 -0.001117183011956513 0.0006472371751442552
! Port Impedance 50.00000000000000 0.00000000000000 50.00000000000000 0.00000000000000 50.00000000000000 0.00000000000000 50.00000000000000 0.00000000000000
137165844114363.34 -0.0014011580497026443 0.0003991162229795009 0.19356435537338257 0.0034069493412971497 0.7235918641090393 -0.030966870486736298 0.4699938893318176 -0.0008156902622431517
 0.20472443103790283 -0.0011729400139302015 -0.0010107933776453137 0.0011056208750233054 0.49620240926742554 -0.004548355471342802 0.7120847702026367 -0.023639697581529617
 0.6373056769371033 -0.015071401372551918 0.48862719535827637 0.0016371209640055895 -0.0008100558188743889 0.00038279019645415246 0.25475770235061646 -0.0013546028640121222
 0.4777151346206665 0.0019126574043184519 0.6382790207862854 0.0031408905051648617 0.2534240186214447 0.002126934938132763 -0.0009895242983475327 0.000692130415700376
! Port Impedance 50.00000000000000 0.00000000000000 50.00000000000000 0.00000000000000 50.00000000000000 0.00000000000000 50.00000000000000 0.00000000000000
140023465866745.92 -0.001134701888076961 0.00042140224832110107 0.18382760882377625 0.004245657008141279 0.6923438906669617 0.002688955282792449 0.4935356080532074 0.000991036300547421
 0.19564062356948853 -0.00010995987395290285 -0.0010066115064546466 0.0010466312523931265 0.5202811360359192 -0.0018289268482476473 0.6803592443466187 0.0016324447933584452
 0.6056400537490845 0.01455564796924591 0.5125625133514404 0.0036101569421589375 -0.0013200519606471062 0.00045690927072428167 0.2470221370458603 0.00013688149920199066
 0.5023931264877319 0.003181119216606021 0.6056184768676758 0.023615436628460884 0.24623745679855347 0.003376696025952697 -0.000882946711499244 0.0008248689118772745
! Port Impedance 50.00000000000000 0.00000000000000 50.00000000000000 0.00000000000000 50.00000000000000 0.00000000000000 50.00000000000000 0.00000000000000
142881087619128.5 -0.0008266953518614173 0.00037999366759322584 0.1724761575460434 0.004949979018419981 0.6549762487411499 0.007118108216673136 0.5169020295143127 0.003053294727578759
 0.1847975105047226 0.0009147340315394104 -0.0012471694499254227 0.0010533151216804981 0.5441649556159973 0.0011529636103659868 0.641823410987854 0.011924724094569683
 0.5700016617774963 0.008625548332929611 0.5363682508468628 0.005793330259621143 -0.0014361864887177944 0.0006385077722370625 0.23626726865768433 0.0015446277102455497
 0.5274002552032471 0.0046433149836957455 0.5707102417945862 0.034881703555583954 0.2361108660697937 0.004491872154176235 -0.0007427646196447313 0.0008647105423733592
! Port Impedance 50.00000000000000 0.00000000000000 50.00000000000000 0.00000000000000 50.00000000000000 0.00000000000000 50.00000000000000 0.00000000000000
145738709371511.06 -0.0006123937200754881 0.0003614693123381585 0.1597241312265396 0.005534001160413027 0.6116989254951477 0.011732642538845539 0.5413872599601746 0.005211593583226204
 0.17278221249580383 0.0018934239633381367 -0.0017631836235523224 0.001249295542947948 0.5677585601806641 0.004142960533499718 0.5988773107528687 0.0018791028996929526
 0.5318635106086731 0.0016168003203347325 0.5605483055114746 0.008032582700252533 -0.0014677195576950908 0.0007333329413086176 0.22246724367141724 0.0027889935299754143
 0.5537957549095154 0.00617017038166523 0.5327741503715515 0.025896674022078514 0.2233337163925171 0.005435486789792776 -0.0007975815096870065 0.0008696983568370342
! Port Impedance 50.00000000000000 0.00000000000000 50.00000000000000 0.00000000000000 50.00000000000000 0.00000000000000 50.00000000000000 0.00000000000000
148596331123893.62 -0.0008786947000771761 0.00039829453453421593 0.14543282985687256 0.005976247601211071 0.5648386478424072 0.017824063077569008 0.5674852728843689 0.007219530176371336
 0.15972112119197845 0.0027597008738666773 -0.0015892620431259274 0.0014068670570850372 0.5920299887657166 0.006872929632663727 0.5523852705955505 0.008980100043118
 0.49237024784088135 0.006158012431114912 0.5857585072517395 0.010037126019597054 -0.001611947431229055 0.000878568331245333 0.205672025680542 0.003810867667198181
 0.582085132598877 0.007574521005153656 0.49210816621780396 0.022765783593058586 0.20776169002056122 0.006062102038413286 -0.0009595226147212088 0.0010064399102702737
! Port Impedance 50.00000000000000 0.00000000000000 50.00000000000000 0.00000000000000 50.00000000000000 0.00000000000000 50.00000000000000 0.00000000000000
151453952876276.2 -0.001327692880295217 0.0004456134047359228 0.13028272986412048 0.006173406261950731 0.5163213610649109 0.025162585079669952 0.5945488810539246 0.008827423676848412
 0.14607051014900208 0.0034122890792787075 -0.0008444034610874951 0.001395003404468298 0.61818927526474 0.009042579680681229 0.5038037300109863 0.013668865896761417
 0.4513872563838959 0.02221040241420269 0.6120296120643616 0.011562949977815151 -0.0010905377566814423 0.0009745722636580467 0.18664400279521942 0.004470981657505035
 0.6113747954368591 0.008600868284702301 0.45228680968284607 0.020657802000641823 0.1897834688425064 0.00622211629524827 -0.00129706843290478 0.0010092975571751595
! Port Impedance 50.00000000000000 0.00000000000000 50.00000000000000 0.00000000000000 50.00000000000000 0.00000000000000 50.00000000000000 0.00000000000000
154311574628658.78 -0.0011794083984568715 0.0004441827186383307 0.11509375274181366 0.006129218731075525 0.46861985325813293 0.022347556427121162 0.6220530867576599 0.009923947043716908
 0.132548525929451 0.0038838128093630075 -0.001186224864795804 0.001353735919110477 0.6449666619300842 0.010433297604322433 0.4571247696876526 -0.0055111064575612545
 0.41001689434051514 0.025231707841157913 0.6378383040428162 0.012529943138360977 -0.0009397114627063274 0.0008424919215030968 0.16591179370880127 0.004726943094283342
 0.6405554413795471 0.009073968976736069 0.4121035933494568 0.008376245386898518 0.1700204312801361 0.0060094548389315605 -0.0025190082378685474 0.0008790609426796436
! Port Impedance 50.00000000000000 0.00000000000000 50.00000000000000 0.00000000000000 50.00000000000000 0.00000000000000 50.00000000000000 0.00000000000000
157169196381041.34 -0.0008995450334623456 0.00045913984649814665 0.09981992095708847 0.005915389396250248 0.42132583260536194 0.012551948428153992 0.6495437622070312 0.010437289252877235
 0.11932584643363953 0.004246321506798267 -0.0023254146799445152 0.0013652128400281072 0.6712831854820251 0.011002114973962307 0.4124891757965088 0.011169475503265858
 0.3717521131038666 0.004699014592915773 0.6626118421554565 0.012870557606220245 -0.0009730982128530741 0.0008603162132203579 0.1440596878528595 0.0046825404278934
 0.6689170598983765 0.008936308324337006 0.37163472175598145 0.03278600797057152 0.1488773077726364 0.005593339446932077 -0.0028960411436855793 0.00118926796130836
! Port Impedance 50.00000000000000 0.00000000000000 50.00000000000000 0.00000000000000 50.00000000000000 0.00000000000000 50.00000000000000 0.00000000000000
160026818133423.9 -0.00105011067353189 0.0006180399795994163 0.08403684198856354 0.005469055380672216 0.3755655288696289 0.0010391655378043652 0.6747121214866638 0.010234221816062927
 0.10601815581321716 0.004447342362254858 -0.003612445667386055 0.0017037477809935808 0.6959306597709656 0.010718435049057007 0.37027508020401 0.00751279853284359
 0.33689314126968384 -0.005614637862890959 0.6843747496604919 0.01241264957934618 -0.0011740446789190173 0.0009794116485863924 0.12176045775413513 0.004379565827548504
 0.6937442421913147 0.008153560571372509 0.33606985211372375 0.0242167878895998 0.12613269686698914 0.004986562300473452 -0.0026402021758258343 0.0015314857009798288
! Port Impedance 50.00000000000000 0.00000000000000 50.00000000000000 0.00000000000000 50.00000000000000 0.00000000000000 50.00000000000000 0.00000000000000
162884439885806.47 -0.0007435858715325594 0.0008282387279905379 0.06817997246980667 0.004710292909294367 0.33362874388694763 -0.009689705446362495 0.6936466693878174 0.009327062405645847
 0.09236670285463333 0.00438062334433198 -0.003023706143721938 0.002055045450106263 0.7151344418525696 0.009518000297248363 0.33038216829299927 -0.005369927268475294
