!This S-parameter file was generated as part of the OIDT. This project was completed as part of research conducted with my major professor and advisor, Prof. Ata Zadehgol, at the Applied and Computational Electromagnetics Signal and Power Integrity (ACEM-SPI) Lab while working toward the Ph.D. in Electrical Engineering at the University of Idaho, Moscow, Idaho, USA. This project was funded, in part, by the National Science Foundation (NSF); award #1816542 [1].
!Created with skrf (http://scikit-rf.org).
# Hz S RI R 50.0 
!freq ReS11 ImS11 ReS12 ImS12 ReS13 ImS13
! ReS14 ImS14
! ReS21 ImS21 ReS22 ImS22 ReS23 ImS23
! ReS24 ImS24
! ReS31 ImS31 ReS32 ImS32 ReS33 ImS33
! ReS34 ImS34
! ReS41 ImS41 ReS42 ImS42 ReS43 ImS43
! ReS44 ImS44
!
100714851252133.66 0.002712099812924862 0.041073981672525406 0.7807921767234802 -0.00010092985758092254 0.6343672275543213 0.014716473408043385 0.7555332183837891 0.011006937362253666
 0.7807921767234802 -0.00010092985758092254 0.005743707064539194 0.04632653668522835 0.7651522755622864 0.011138464324176311 0.6345399618148804 0.025317523628473282
 0.6343672275543213 0.014716473408043385 0.7651522755622864 0.011138464324176311 0.002500684466212988 0.04115307703614235 0.7820801138877869 0.00031957481405697763
 0.7555332183837891 0.011006937362253666 0.6345399618148804 0.025317523628473282 0.7820801138877869 0.00031957481405697763 0.008127446286380291 0.04253152385354042
! Port Impedance 50.00000000000000 0.00000000000000 50.00000000000000 0.00000000000000 50.00000000000000 0.00000000000000 50.00000000000000 0.00000000000000
102857720427710.97 0.0034571802243590355 0.048092350363731384 0.7951547503471375 -0.0004545008996501565 0.6051830649375916 0.011093155480921268 0.7408607006072998 0.010522902011871338
 0.7951547503471375 -0.0004545008996501565 0.006693478208035231 0.04297906532883644 0.7500326037406921 0.010709063149988651 0.6052353978157043 0.02182307280600071
 0.6051830649375916 0.011093155480921268 0.7500326037406921 0.010709063149988651 0.002985702594742179 0.04305150359869003 0.7960920929908752 -3.476626079645939e-05
 0.7408607006072998 0.010522902011871338 0.6052353978157043 0.02182307280600071 0.7960920929908752 -3.476626079645939e-05 0.009346523322165012 0.03267925977706909
! Port Impedance 50.00000000000000 0.00000000000000 50.00000000000000 0.00000000000000 50.00000000000000 0.00000000000000 50.00000000000000 0.00000000000000
105000589603288.28 0.004015167709439993 0.04994016885757446 0.8103713393211365 -0.0006924875779077411 0.5769636034965515 -0.011086623184382915 0.7247357964515686 0.009967701509594917
 0.8103713393211365 -0.0006924875779077411 0.007610277738422155 0.0345437154173851 0.7333539724349976 0.010287201032042503 0.5766503214836121 -0.006313216406852007
 0.5769636034965515 -0.011086623184382915 0.7333539724349976 0.010287201032042503 0.0031701650004833937 0.04281073063611984 0.8108175992965698 -0.00028085813391953707
 0.7247357964515686 0.009967701509594917 0.5766503214836121 -0.006313216406852007 0.8108175992965698 -0.00028085813391953707 0.01117712538689375 0.022564079612493515
! Port Impedance 50.00000000000000 0.00000000000000 50.00000000000000 0.00000000000000 50.00000000000000 0.00000000000000 50.00000000000000 0.00000000000000
107143458778865.6 0.004011265002191067 0.04935836046934128 0.825295627117157 -0.0008305744850076735 0.5501319169998169 -0.02359529584646225 0.7067444920539856 0.009369026869535446
 0.825295627117157 -0.0008305744850076735 0.008034183643758297 0.028365077450871468 0.7145915031433105 0.009839311242103577 0.5499515533447266 -0.02475638873875141
 0.5501319169998169 -0.02359529584646225 0.7145915031433105 0.009839311242103577 0.003416612511500716 0.0424346886575222 0.8252512812614441 -0.00048863171832636
 0.7067444920539856 0.009369026869535446 0.5499515533447266 -0.02475638873875141 0.8252512812614441 -0.00048863171832636 0.011885867454111576 0.018886948004364967
! Port Impedance 50.00000000000000 0.00000000000000 50.00000000000000 0.00000000000000 50.00000000000000 0.00000000000000 50.00000000000000 0.00000000000000
109286327954442.9 0.0035581542178988457 0.047922294586896896 0.8392539620399475 -0.0011015505297109485 0.5236071348190308 -0.015375195071101189 0.6873329281806946 0.00866882037371397
 0.8392539620399475 -0.0011015505297109485 0.007604304235428572 0.02927369624376297 0.6936829090118408 0.009300480596721172 0.5232633352279663 -0.012219215743243694
 0.5236071348190308 -0.015375195071101189 0.6936829090118408 0.009300480596721172 0.0042624459601938725 0.04060322791337967 0.8390274047851562 -0.0009356289519928396
 0.6873329281806946 0.00866882037371397 0.5232633352279663 -0.012219215743243694 0.8390274047851562 -0.0009356289519928396 0.010909803211688995 0.020909734070301056
! Port Impedance 50.00000000000000 0.00000000000000 50.00000000000000 0.00000000000000 50.00000000000000 0.00000000000000 50.00000000000000 0.00000000000000
111429197130020.22 0.003392002312466502 0.04429025948047638 0.8526263236999512 -0.0017513822531327605 0.49913686513900757 -0.0023382024373859167 0.6672590374946594 0.007659673225134611
 0.8526263236999512 -0.0017513822531327605 0.00808371789753437 0.030276453122496605 0.6712430715560913 0.008543367497622967 0.49860498309135437 0.006022827234119177
 0.49913686513900757 -0.0023382024373859167 0.6712430715560913 0.008543367497622967 0.006261133123189211 0.03627611696720123 0.852208137512207 -0.001843394129537046
 0.6672590374946594 0.007659673225134611 0.49860498309135437 0.006022827234119177 0.852208137512207 -0.001843394129537046 0.011266064830124378 0.02156502567231655
! Port Impedance 50.00000000000000 0.00000000000000 50.00000000000000 0.00000000000000 50.00000000000000 0.00000000000000 50.00000000000000 0.00000000000000
113572066305597.53 0.004024962894618511 0.039673179388046265 0.866037130355835 -0.002515704371035099 0.4783984422683716 0.002205129014328122 0.6468451023101807 0.0065176645293831825
 0.866037130355835 -0.002515704371035099 0.010277888737618923 0.02671259455382824 0.6483545899391174 0.007728996686637402 0.4772302508354187 -0.0008638493600301445
 0.4783984422683716 0.002205129014328122 0.6483545899391174 0.007728996686637402 0.008492526598274708 0.03486517816781998 0.8648101091384888 -0.002839805791154504
 0.6468451023101807 0.0065176645293831825 0.4772302508354187 -0.0008638493600301445 0.8648101091384888 -0.002839805791154504 0.013017592951655388 0.020116694271564484
! Port Impedance 50.00000000000000 0.00000000000000 50.00000000000000 0.00000000000000 50.00000000000000 0.00000000000000 50.00000000000000 0.00000000000000
115714935481174.84 0.00500636687502265 0.041306499391794205 0.8782933354377747 -0.0026083015836775303 0.45893704891204834 0.001696842024102807 0.6248987317085266 0.0059272898361086845
 0.8782933354377747 -0.0026083015836775303 0.012677931226789951 0.0242543276399374 0.6247360706329346 0.007429609540849924 0.45756375789642334 -0.01865105889737606
 0.45893704891204834 0.001696842024102807 0.6247360706329346 0.007429609540849924 0.008469503372907639 0.0414620116353035 0.8765283823013306 -0.0029935180209577084
 0.6248987317085266 0.0059272898361086845 0.45756375789642334 -0.01865105889737606 0.8765283823013306 -0.0029935180209577084 0.013073207810521126 0.022267255932092667
! Port Impedance 50.00000000000000 0.00000000000000 50.00000000000000 0.00000000000000 50.00000000000000 0.00000000000000 50.00000000000000 0.00000000000000
117857804656752.16 0.005345720332115889 0.0514594130218029 0.8873797059059143 -0.0020437403582036495 0.436470627784729 -0.0014655819395557046 0.59999680519104 0.005866179708391428
 0.8873797059059143 -0.0020437403582036495 0.011321195401251316 0.03181736171245575 0.5987932085990906 0.007619716692715883 0.4347458779811859 -0.012759885750710964
 0.436470627784729 -0.0014655819395557046 0.5987932085990906 0.007619716692715883 0.007475424092262983 0.05251548811793327 0.8866574168205261 -0.0023019923828542233
 0.59999680519104 0.005866179708391428 0.4347458779811859 -0.012759885750710964 0.8866574168205261 -0.0023019923828542233 0.010793676599860191 0.03233632072806358
! Port Impedance 50.00000000000000 0.00000000000000 50.00000000000000 0.00000000000000 50.00000000000000 0.00000000000000 50.00000000000000 0.00000000000000
120000673832329.47 0.005275494419038296 0.060050830245018005 0.8935811519622803 -0.0013532362645491958 0.4101521670818329 -0.015315976925194263 0.5720916986465454 0.0057784803211688995
 0.8935811519622803 -0.0013532362645491958 0.009928040206432343 0.04506738483905792 0.570094108581543 0.007842517457902431 0.4085266888141632 0.015385459177196026
 0.4101521670818329 -0.015315976925194263 0.570094108581543 0.007842517457902431 0.006934596225619316 0.05943470820784569 0.8947356343269348 -0.0013854202115908265
 0.5720916986465454 0.0057784803211688995 0.4085266888141632 0.015385459177196026 0.8947356343269348 -0.0013854202115908265 0.009272300638258457 0.04646248370409012
! Port Impedance 50.00000000000000 0.00000000000000 50.00000000000000 0.00000000000000 50.00000000000000 0.00000000000000 50.00000000000000 0.00000000000000
122143543007906.77 0.005636640824377537 0.05929069593548775 0.8983029723167419 -0.0008032834157347679 0.38223785161972046 -0.03199892118573189 0.5420028567314148 0.005337080918252468
 0.8983029723167419 -0.0008032834157347679 0.010019231587648392 0.0546349473297596 0.539137601852417 0.007812278810888529 0.38088905811309814 0.030597422271966934
 0.38223785161972046 -0.03199892118573189 0.539137601852417 0.007812278810888529 0.007329790852963924 0.056743375957012177 0.9005961418151855 -0.0006106641376391053
 0.5420028567314148 0.005337080918252468 0.38088905811309814 0.030597422271966934 0.9005961418151855 -0.0006106641376391053 0.008510082960128784 0.05790189281105995
! Port Impedance 50.00000000000000 0.00000000000000 50.00000000000000 0.00000000000000 50.00000000000000 0.00000000000000 50.00000000000000 0.00000000000000
124286412183484.08 0.006961922161281109 0.049286212772130966 0.9024620652198792 -0.0004985768464393914 0.35237178206443787 -0.024930451065301895 0.5110294222831726 0.00453112693503499
 0.9024620652198792 -0.0004985768464393914 0.0106968367472291 0.057902660220861435 0.5066303610801697 0.007468637079000473 0.3514937162399292 0.014887427911162376
 0.35237178206443787 -0.024930451065301895 0.5066303610801697 0.007468637079000473 0.008891530334949493 0.04577178880572319 0.9047897458076477 -0.00014754908625036478
 0.5110294222831726 0.00453112693503499 0.3514937162399292 0.014887427911162376 0.9047897458076477 -0.00014754908625036478 0.007807357236742973 0.061651118099689484
! Port Impedance 50.00000000000000 0.00000000000000 50.00000000000000 0.00000000000000 50.00000000000000 0.00000000000000 50.00000000000000 0.00000000000000
126429281359061.39 0.009221453219652176 0.03569161891937256 0.9069697856903076 -0.00047319839359261096 0.32357290387153625 0.005263742059469223 0.4800972044467926 0.003487676614895463
 0.9069697856903076 -0.00047319839359261096 0.011397358030080795 0.05524309724569321 0.47327572107315063 0.00690627284348011 0.32478204369544983 -0.012090652249753475
 0.32357290387153625 0.005263742059469223 0.47327572107315063 0.00690627284348011 0.011252684518694878 0.03225850686430931 0.9089945554733276 -3.585202284739353e-05
 0.4800972044467926 0.003487676614895463 0.32478204369544983 -0.012090652249753475 0.9089945554733276 -3.585202284739353e-05 0.00764445262029767 0.05557841435074806
! Port Impedance 50.00000000000000 0.00000000000000 50.00000000000000 0.00000000000000 50.00000000000000 0.00000000000000 50.00000000000000 0.00000000000000
128572150534638.7 0.011135510168969631 0.027910521253943443 0.9122180342674255 -0.0005755096790380776 0.2993570864200592 0.01917579211294651 0.4489574730396271 0.0023471685126423836
 0.9122180342674255 -0.0005755096790380776 0.012309599667787552 0.04818808287382126 0.43911173939704895 0.00627738144248724 0.30152565240859985 -0.022477056831121445
 0.2993570864200592 0.01917579211294651 0.43911173939704895 0.00627738144248724 0.01193641871213913 0.025593899190425873 0.9140464663505554 -9.261706873076037e-05
 0.4489574730396271 0.0023471685126423836 0.30152565240859985 -0.022477056831121445 0.9140464663505554 -9.261706873076037e-05 0.009320815093815327 0.04502515122294426
! Port Impedance 50.00000000000000 0.00000000000000 50.00000000000000 0.00000000000000 50.00000000000000 0.00000000000000 50.00000000000000 0.00000000000000
130715019710216.02 0.00969050731509924 0.03335082158446312 0.9172120690345764 -0.0006369255715981126 0.2774404287338257 0.0023926477879285812 0.4170069098472595 0.0012314398773014545
 0.9172120690345764 -0.0006369255715981126 0.012961971573531628 0.043801117688417435 0.4037642180919647 0.005684821866452694 0.2798595428466797 -0.014476806856691837
 0.2774404287338257 0.0023926477879285812 0.4037642180919647 0.005684821866452694 0.007990917190909386 0.03447827696800232 0.9187955856323242 -0.00013875920558348298
 0.4170069098472595 0.0012314398773014545 0.2798595428466797 -0.014476806856691837 0.9187955856323242 -0.00013875920558348298 0.010951208882033825 0.04327327385544777
! Port Impedance 50.00000000000000 0.00000000000000 50.00000000000000 0.00000000000000 50.00000000000000 0.00000000000000 50.00000000000000 0.00000000000000
132857888885793.33 0.007570802699774504 0.04637710750102997 0.9207822680473328 -0.0006902302266098559 0.2585689127445221 -0.0061036706902086735 0.3845275938510895 0.00023333616263698786
 0.9207822680473328 -0.0006902302266098559 0.011407563462853432 0.049203090369701385 0.36763256788253784 0.0051917461678385735 0.26098060607910156 -0.005147588439285755
 0.2585689127445221 -0.0061036706902086735 0.36763256788253784 0.0051917461678385735 0.005377972964197397 0.050512686371803284 0.9222485423088074 -0.0002185830526286736
 0.3845275938510895 0.00023333616263698786 0.26098060607910156 -0.005147588439285755 0.9222485423088074 -0.0002185830526286736 0.010054420679807663 0.05265781283378601
! Port Impedance 50.00000000000000 0.00000000000000 50.00000000000000 0.00000000000000 50.00000000000000 0.00000000000000 50.00000000000000 0.00000000000000
135000758061370.64 0.006270933896303177 0.05942537635564804 0.9227694272994995 -0.0007893030997365713 0.24040494859218597 0.0074648442678153515 0.3526360094547272 -0.0006037971470504999
 0.9227694272994995 -0.0007893030997365713 0.009436668828129768 0.05879799649119377 0.3322279453277588 0.004881039261817932 0.24505247175693512 -0.001751403440721333
 0.24040494859218597 0.0074648442678153515 0.3322279453277588 0.004881039261817932 0.004523375537246466 0.062266405671834946 0.9246659874916077 -0.0003672786115203053
 0.3526360094547272 -0.0006037971470504999 0.24505247175693512 -0.001751403440721333 0.9246659874916077 -0.0003672786115203053 0.009714841842651367 0.06168690323829651
! Port Impedance 50.00000000000000 0.00000000000000 50.00000000000000 0.00000000000000 50.00000000000000 0.00000000000000 50.00000000000000 0.00000000000000
137143627236947.95 0.0060042040422558784 0.06875339150428772 0.9233102798461914 -0.0008395985933020711 0.22310960292816162 0.00011791302677011117 0.32217252254486084 -0.001279911957681179
 0.9233102798461914 -0.0008395985933020711 0.009295512922108173 0.06634196639060974 0.29915982484817505 0.004819154739379883 0.23003871738910675 -0.004954592324793339
 0.22310960292816162 0.00011791302677011117 0.29915982484817505 0.004819154739379883 0.004716087598353624 0.06605042517185211 0.9259436726570129 -0.0004619891697075218
 0.32217252254486084 -0.001279911957681179 0.23003871738910675 -0.004954592324793339 0.9259436726570129 -0.0004619891697075218 0.011168234050273895 0.065725177526474
! Port Impedance 50.00000000000000 0.00000000000000 50.00000000000000 0.00000000000000 50.00000000000000 0.00000000000000 50.00000000000000 0.00000000000000
139286496412525.27 0.006962156854569912 0.07130059599876404 0.9226335883140564 -0.0008114923257380724 0.2122730016708374 -0.025466550141572952 0.2931126356124878 -0.0018330641323700547
 0.9226335883140564 -0.0008114923257380724 0.011216990649700165 0.0704946219921112 0.2692195773124695 0.005019498523324728 0.21520093083381653 -0.01736714504659176
 0.2122730016708374 -0.025466550141572952 0.2692195773124695 0.005019498523324728 0.005945927929133177 0.06420418620109558 0.925698459148407 -0.00048457938828505576
 0.2931126356124878 -0.0018330641323700547 0.21520093083381653 -0.01736714504659176 0.925698459148407 -0.00048457938828505576 0.013213553465902805 0.06652074307203293
! Port Impedance 50.00000000000000 0.00000000000000 50.00000000000000 0.00000000000000 50.00000000000000 0.00000000000000 50.00000000000000 0.00000000000000
141429365588102.6 0.008591940626502037 0.06535106152296066 0.921748697757721 -0.0008107724133878946 0.20476558804512024 -0.01277126930654049 0.2656376361846924 -0.0023616785183548927
 0.921748697757721 -0.0008107724133878946 0.013989264145493507 0.06641356647014618 0.24289412796497345 0.005498836282640696 0.20251132547855377 -0.02117813192307949
 0.20476558804512024 -0.01277126930654049 0.24289412796497345 0.005498836282640696 0.0076462398283183575 0.061454225331544876 0.9249774813652039 -0.0005496623343788087
 0.2656376361846924 -0.0023616785183548927 0.20251132547855377 -0.02117813192307949 0.9249774813652039 -0.0005496623343788087 0.01470187772065401 0.06235478073358536
! Port Impedance 50.00000000000000 0.00000000000000 50.00000000000000 0.00000000000000 50.00000000000000 0.00000000000000 50.00000000000000 0.00000000000000
143572234763679.9 0.009739923290908337 0.054043471813201904 0.9208791851997375 -0.0008311900310218334 0.1991410255432129 0.01604457199573517 0.24122440814971924 -0.0030053744558244944
 0.9208791851997375 -0.0008311900310218334 0.016790054738521576 0.053592830896377563 0.2210599035024643 0.006249104626476765 0.19264648854732513 -0.005558703560382128
 0.1991410255432129 0.01604457199573517 0.2210599035024643 0.006249104626476765 0.008371354080736637 0.057773906737565994 0.9245374798774719 -0.0006235850742086768
 0.24122440814971924 -0.0030053744558244944 0.19264648854732513 -0.005558703560382128 0.9245374798774719 -0.0006235850742086768 0.016471602022647858 0.05329402908682823
! Port Impedance 50.00000000000000 0.00000000000000 50.00000000000000 0.00000000000000 50.00000000000000 0.00000000000000 50.00000000000000 0.00000000000000
145715103939257.22 0.009817253798246384 0.04877827316522598 0.9176143407821655 -0.0007899226620793343 0.1896088719367981 0.0053064459934830666 0.22186310589313507 -0.0038598927203565836
 0.9176143407821655 -0.0007899226620793343 0.016072425991296768 0.05263032391667366 0.2041194587945938 0.007120712194591761 0.18413139879703522 -0.009384151548147202
 0.1896088719367981 0.0053064459934830666 0.2041194587945938 0.007120712194591761 0.008726630359888077 0.054188985377550125 0.9219766855239868 -0.0006215655012056231
 0.22186310589313507 -0.0038598927203565836 0.18413139879703522 -0.009384151548147202 0.9219766855239868 -0.0006215655012056231 0.017145901918411255 0.05479280278086662
! Port Impedance 50.00000000000000 0.00000000000000 50.00000000000000 0.00000000000000 50.00000000000000 0.00000000000000 50.00000000000000 0.00000000000000
147857973114834.5 0.010528639890253544 0.05338606610894203 0.9098798036575317 -0.0007460735505446792 0.1807810664176941 -0.00877044815570116 0.20875772833824158 -0.004934261552989483
 0.9098798036575317 -0.0007460735505446792 0.013343624770641327 0.07048728317022324 0.19124427437782288 0.007916419766843319 0.17810547351837158 -0.03668977692723274
 0.1807810664176941 -0.00877044815570116 0.19124427437782288 0.007916419766843319 0.011485890485346317 0.057551901787519455 0.914543867111206 -0.0006313403137028217
 0.20875772833824158 -0.004934261552989483 0.17810547351837158 -0.03668977692723274 0.914543867111206 -0.0006313403137028217 0.015868427231907845 0.07164102047681808
! Port Impedance 50.00000000000000 0.00000000000000 50.00000000000000 0.00000000000000 50.00000000000000 0.00000000000000 50.00000000000000 0.00000000000000
