!This S-parameter file was generated as part of the OIDT. This project was completed as part of research conducted with my major professor and advisor, Prof. Ata Zadehgol, at the Applied and Computational Electromagnetics Signal and Power Integrity (ACEM-SPI) Lab while working toward the Ph.D. in Electrical Engineering at the University of Idaho, Moscow, Idaho, USA. This project was funded, in part, by the National Science Foundation (NSF); award #1816542 [1].
!Created with skrf (http://scikit-rf.org).
# Hz S RI R 50.0 
!freq ReS11 ImS11 ReS12 ImS12 ReS13 ImS13
! ReS14 ImS14
! ReS21 ImS21 ReS22 ImS22 ReS23 ImS23
! ReS24 ImS24
! ReS31 ImS31 ReS32 ImS32 ReS33 ImS33
! ReS34 ImS34
! ReS41 ImS41 ReS42 ImS42 ReS43 ImS43
! ReS44 ImS44
!
100003339628994.97 0.011941789649426937 -0.086258664727211 0.9811307787895203 0.0002609225921332836 0.11581213772296906 -0.014603266492486 0.16936857998371124 0.010866264812648296
 0.9811307787895203 0.0002609225921332836 0.0074163274839520454 -0.09526923298835754 0.13183990120887756 0.015916146337985992 0.08490218967199326 0.035977043211460114
 0.11581213772296906 -0.014603266492486 0.13183990120887756 0.015916146337985992 0.01013415027409792 -0.09451530873775482 0.9717758893966675 0.00034613910247571766
 0.16936857998371124 0.010866264812648296 0.08490218967199326 0.035977043211460114 0.9717758893966675 0.00034613910247571766 0.009898563846945763 -0.09213405102491379
! Port Impedance 50.00000000000000 0.00000000000000 50.00000000000000 0.00000000000000 50.00000000000000 0.00000000000000 50.00000000000000 0.00000000000000
102860577904109.11 0.009514309465885162 -0.15743161737918854 0.9722656607627869 0.00015428852930199355 0.09686917066574097 -0.00519257877022028 0.1777554154396057 0.012037118896842003
 0.9722656607627869 0.00015428852930199355 0.003346664598211646 -0.1680588573217392 0.14939278364181519 0.017650017514824867 0.0800013467669487 0.02638748101890087
 0.09686917066574097 -0.00519257877022028 0.14939278364181519 0.017650017514824867 0.006070476025342941 -0.16409017145633698 0.961918830871582 -0.00028831916279159486
 0.1777554154396057 0.012037118896842003 0.0800013467669487 0.02638748101890087 0.961918830871582 -0.00028831916279159486 0.004971744958311319 -0.16699020564556122
! Port Impedance 50.00000000000000 0.00000000000000 50.00000000000000 0.00000000000000 50.00000000000000 0.00000000000000 50.00000000000000 0.00000000000000
105717816179223.25 0.009676904417574406 -0.1953740268945694 0.965022623538971 0.0012678969651460648 0.07951491326093674 0.0035198817495256662 0.17280398309230804 0.010554841719567776
 0.965022623538971 0.0012678969651460648 0.0036104677710682154 -0.20556019246578217 0.16085106134414673 0.01326229888945818 0.08451641350984573 0.005687132477760315
 0.07951491326093674 0.0035198817495256662 0.16085106134414673 0.01326229888945818 0.005083364434540272 -0.1977325826883316 0.9562365412712097 -0.00041103779221884906
 0.17280398309230804 0.010554841719567776 0.08451641350984573 0.005687132477760315 0.9562365412712097 -0.00041103779221884906 0.0045554377138614655 -0.2028682678937912
! Port Impedance 50.00000000000000 0.00000000000000 50.00000000000000 0.00000000000000 50.00000000000000 0.00000000000000 50.00000000000000 0.00000000000000
108575054454337.39 0.009891357272863388 -0.20472095906734467 0.9625227451324463 0.003027857281267643 0.06898249685764313 -0.0038998054806143045 0.15351997315883636 0.0054521337151527405
 0.9625227451324463 0.003027857281267643 0.00504295015707612 -0.2042125165462494 0.16020670533180237 0.0022954216692596674 0.08811181783676147 0.01814441941678524
 0.06898249685764313 -0.0038998054806143045 0.16020670533180237 0.0022954216692596674 0.0051107280887663364 -0.19130048155784607 0.957963764667511 0.0002732515858951956
 0.15351997315883636 0.0054521337151527405 0.08811181783676147 0.01814441941678524 0.957963764667511 0.0002732515858951956 0.007047493010759354 -0.1977599412202835
! Port Impedance 50.00000000000000 0.00000000000000 50.00000000000000 0.00000000000000 50.00000000000000 0.00000000000000 50.00000000000000 0.00000000000000
111432292729451.55 0.008807327598333359 -0.20108875632286072 0.9641469717025757 0.0033742350060492754 0.06317351758480072 -0.0003444488102104515 0.11620546132326126 -0.002828475320711732
 0.9641469717025757 0.0033742350060492754 0.0033578728325664997 -0.18992476165294647 0.14072728157043457 -0.010404336266219616 0.09113176167011261 0.0027988392394036055
 0.06317351758480072 -0.0003444488102104515 0.14072728157043457 -0.010404336266219616 0.005427769385278225 -0.17955569922924042 0.9602498412132263 0.0015765335410833359
 0.11620546132326126 -0.002828475320711732 0.09113176167011261 0.0027988392394036055 0.9602498412132263 0.0015765335410833359 0.007788422051817179 -0.18160369992256165
! Port Impedance 50.00000000000000 0.00000000000000 50.00000000000000 0.00000000000000 50.00000000000000 0.00000000000000 50.00000000000000 0.00000000000000
114289531004565.69 0.005753509234637022 -0.20623064041137695 0.9636011719703674 0.0013139067450538278 0.07550739496946335 0.01907508075237274 0.0700627863407135 -0.003961315378546715
 0.9636011719703674 0.0013139067450538278 0.001422234228812158 -0.20190098881721497 0.10365041345357895 -0.018307244405150414 0.09215269237756729 -0.03650904819369316
 0.07550739496946335 0.01907508075237274 0.10365041345357895 -0.018307244405150414 0.004650709219276905 -0.20137982070446014 0.9572227597236633 0.0021390814799815416
 0.0700627863407135 -0.003961315378546715 0.09215269237756729 -0.03650904819369316 0.9572227597236633 0.0021390814799815416 0.0036479502450674772 -0.19178488850593567
! Port Impedance 50.00000000000000 0.00000000000000 50.00000000000000 0.00000000000000 50.00000000000000 0.00000000000000 50.00000000000000 0.00000000000000
117146769279679.83 0.0026201349683105946 -0.2244926244020462 0.9557101130485535 -0.000779666646849364 0.09877226501703262 0.014303131960332394 0.07251762598752975 0.008789385668933392
 0.9557101130485535 -0.000779666646849364 0.002346769440919161 -0.22861821949481964 0.05453594774007797 -0.01936243288218975 0.08930157870054245 0.001696675200946629
 0.09877226501703262 0.014303131960332394 0.05453594774007797 -0.01936243288218975 0.003512075636535883 -0.23037204146385193 0.9508092999458313 0.0015972686232998967
 0.07251762598752975 0.008789385668933392 0.08930157870054245 0.001696675200946629 0.9508092999458313 0.0015972686232998967 0.0026664515025913715 -0.2192109227180481
! Port Impedance 50.00000000000000 0.00000000000000 50.00000000000000 0.00000000000000 50.00000000000000 0.00000000000000 50.00000000000000 0.00000000000000
120004007554793.97 0.0013963914243504405 -0.21832436323165894 0.9505012035369873 -0.0010232710046693683 0.10880747437477112 0.011568203568458557 0.11260271072387695 0.006376244127750397
 0.9505012035369873 -0.0010232710046693683 0.004307027440518141 -0.22455336153507233 0.03885279595851898 0.003479897975921631 0.10831308364868164 0.021532919257879257
 0.10880747437477112 0.011568203568458557 0.03885279595851898 0.003479897975921631 0.0032557188533246517 -0.22709043323993683 0.9479665756225586 0.0014965981245040894
 0.11260271072387695 0.006376244127750397 0.10831308364868164 0.021532919257879257 0.9479665756225586 0.0014965981245040894 0.005022781901061535 -0.22074781358242035
! Port Impedance 50.00000000000000 0.00000000000000 50.00000000000000 0.00000000000000 50.00000000000000 0.00000000000000 50.00000000000000 0.00000000000000
122861245829908.11 0.0028959691990166903 -0.17318293452262878 0.9551147222518921 0.00031667857547290623 0.10661960393190384 0.010647647082805634 0.13736538589000702 -0.001221546670421958
 0.9551147222518921 0.00031667857547290623 0.006347321439534426 -0.17562180757522583 0.08658591657876968 0.005903482902795076 0.0968208983540535 -0.01613253355026245
 0.10661960393190384 0.010647647082805634 0.08658591657876968 0.005903482902795076 0.004670910071581602 -0.18508341908454895 0.9543154239654541 0.0022124173119664192
 0.13736538589000702 -0.001221546670421958 0.0968208983540535 -0.01613253355026245 0.9543154239654541 0.0022124173119664192 0.006111507769674063 -0.17477105557918549
! Port Impedance 50.00000000000000 0.00000000000000 50.00000000000000 0.00000000000000 50.00000000000000 0.00000000000000 50.00000000000000 0.00000000000000
125718484105022.25 0.006870836019515991 -0.12178327143192291 0.9642956256866455 0.0017818206688389182 0.09460966289043427 0.0006771320477128029 0.1319892406463623 -0.007499325089156628
 0.9642956256866455 0.0017818206688389182 0.008596250787377357 -0.1113567128777504 0.12053245306015015 -0.0010799809824675322 0.08125989884138107 -0.029481858015060425
 0.09460966289043427 0.0006771320477128029 0.12053245306015015 -0.0010799809824675322 0.008529288694262505 -0.12907104194164276 0.9656547904014587 0.0027694953605532646
 0.1319892406463623 -0.007499325089156628 0.08125989884138107 -0.029481858015060425 0.9656547904014587 0.0027694953605532646 0.005467393901199102 -0.10682646930217743
! Port Impedance 50.00000000000000 0.00000000000000 50.00000000000000 0.00000000000000 50.00000000000000 0.00000000000000 50.00000000000000 0.00000000000000
128575722380136.39 0.007757032290101051 -0.11342053860425949 0.9713063836097717 0.0021584676578640938 0.08063656836748123 0.004403190221637487 0.10288945585489273 -0.009424511343240738
 0.9713063836097717 0.0021584676578640938 0.009004506282508373 -0.09287086874246597 0.12944866716861725 -0.007300510071218014 0.06872603297233582 -0.009552660398185253
 0.08063656836748123 0.004403190221637487 0.12944866716861725 -0.007300510071218014 0.010760890319943428 -0.11186668276786804 0.9726102948188782 0.002539434004575014
 0.10288945585489273 -0.009424511343240738 0.06872603297233582 -0.009552660398185253 0.9726102948188782 0.002539434004575014 0.006848658435046673 -0.08732682466506958
! Port Impedance 50.00000000000000 0.00000000000000 50.00000000000000 0.00000000000000 50.00000000000000 0.00000000000000 50.00000000000000 0.00000000000000
131432960655250.53 0.006978099700063467 -0.12212111055850983 0.9756913781166077 0.0016165467677637935 0.06387784332036972 0.007302256301045418 0.06781601905822754 -0.0041223675943911076
 0.9756913781166077 0.0016165467677637935 0.008316968567669392 -0.10635802894830704 0.11434873938560486 -0.010536779649555683 0.054713211953639984 -0.0036305864341557026
 0.06387784332036972 0.007302256301045418 0.11434873938560486 -0.010536779649555683 0.00946291908621788 -0.12542885541915894 0.9747393727302551 0.0018587555969133973
 0.06781601905822754 -0.0041223675943911076 0.054713211953639984 -0.0036305864341557026 0.9747393727302551 0.0018587555969133973 0.009247289039194584 -0.10430661588907242
! Port Impedance 50.00000000000000 0.00000000000000 50.00000000000000 0.00000000000000 50.00000000000000 0.00000000000000 50.00000000000000 0.00000000000000
134290198930364.67 0.008959883823990822 -0.12189166247844696 0.9774890542030334 0.0010330266086384654 0.04060596972703934 -0.009345394559204578 0.06009659916162491 0.009548935107886791
 0.9774890542030334 0.0010330266086384654 0.008093363605439663 -0.11112018674612045 0.08420468121767044 -0.010062548331916332 0.0371406227350235 -0.003558169584721327
 0.04060596972703934 -0.009345394559204578 0.08420468121767044 -0.010062548331916332 0.009411095641553402 -0.1281852126121521 0.9750556945800781 0.0012146026128903031
 0.06009659916162491 0.009548935107886791 0.0371406227350235 -0.003558169584721327 0.9750556945800781 0.0012146026128903031 0.008415766060352325 -0.10847913473844528
! Port Impedance 50.00000000000000 0.00000000000000 50.00000000000000 0.00000000000000 50.00000000000000 0.00000000000000 50.00000000000000 0.00000000000000
137147437205478.81 0.010331597179174423 -0.1324574053287506 0.9742997884750366 0.0009517290163785219 0.027999969199299812 -0.02846536785364151 0.08537501096725464 0.012585403397679329
 0.9742997884750366 0.0009517290163785219 0.007071902975440025 -0.12466057389974594 0.06139596551656723 -0.0039042842108756304 0.022534765303134918 0.004925199318677187
 0.027999969199299812 -0.02846536785364151 0.06139596551656723 -0.0039042842108756304 0.009485825896263123 -0.1279277801513672 0.972973108291626 0.0009917151182889938
 0.08537501096725464 0.012585403397679329 0.022534765303134918 0.004925199318677187 0.972973108291626 0.0009917151182889938 0.005077502690255642 -0.11416350305080414
! Port Impedance 50.00000000000000 0.00000000000000 50.00000000000000 0.00000000000000 50.00000000000000 0.00000000000000 50.00000000000000 0.00000000000000
140004675480592.97 0.009852341376245022 -0.14410117268562317 0.9690338969230652 0.0013613931369036436 0.024036571383476257 -0.03564856946468353 0.10748541355133057 0.009945269674062729
 0.9690338969230652 0.0013613931369036436 0.007021794561296701 -0.14091838896274567 0.07469093799591064 0.0038890789728611708 0.021348802372813225 0.023668069392442703
 0.024036571383476257 -0.03564856946468353 0.07469093799591064 0.0038890789728611708 0.009364726021885872 -0.13203705847263336 0.9698325991630554 0.0012489568907767534
 0.10748541355133057 0.009945269674062729 0.021348802372813225 0.023668069392442703 0.9698325991630554 0.0012489568907767534 0.00607658876106143 -0.12364436686038971
! Port Impedance 50.00000000000000 0.00000000000000 50.00000000000000 0.00000000000000 50.00000000000000 0.00000000000000 50.00000000000000 0.00000000000000
142861913755707.1 0.011466107331216335 -0.1309499591588974 0.9680332541465759 0.0017799163470044732 0.038751956075429916 -0.041582293808460236 0.11234313994646072 0.00679438142105937
 0.9680332541465759 0.0017799163470044732 0.008542710915207863 -0.1302618384361267 0.10504122078418732 0.0069902632385492325 0.020514268428087234 0.01132110133767128
 0.038751956075429916 -0.041582293808460236 0.10504122078418732 0.0069902632385492325 0.011044648475944996 -0.12743106484413147 0.969504714012146 0.001758788013830781
 0.11234313994646072 0.00679438142105937 0.020514268428087234 0.01132110133767128 0.969504714012146 0.001758788013830781 0.011979412287473679 -0.12022221088409424
! Port Impedance 50.00000000000000 0.00000000000000 50.00000000000000 0.00000000000000 50.00000000000000 0.00000000000000 50.00000000000000 0.00000000000000
145719152030821.25 0.017661329358816147 -0.10248342901468277 0.9703078866004944 0.0018501306185498834 0.05002089589834213 -0.04136953130364418 0.09666470438241959 0.00446426821872592
 0.9703078866004944 0.0018501306185498834 0.011171258985996246 -0.09620164334774017 0.12873554229736328 0.00934532005339861 0.03805796802043915 -0.014904377982020378
 0.05002089589834213 -0.04136953130364418 0.12873554229736328 0.00934532005339861 0.014028660021722317 -0.1151181161403656 0.9727851748466492 0.0022353900130838156
 0.09666470438241959 0.00446426821872592 0.03805796802043915 -0.014904377982020378 0.9727851748466492 0.0022353900130838156 0.01679380051791668 -0.10539740324020386
! Port Impedance 50.00000000000000 0.00000000000000 50.00000000000000 0.00000000000000 50.00000000000000 0.00000000000000 50.00000000000000 0.00000000000000
148576390305935.38 0.022482259199023247 -0.0958213359117508 0.9696987271308899 0.0017946244915947318 0.04360046982765198 -0.023869019001722336 0.06891593337059021 0.004559721332043409
 0.9696987271308899 0.0017946244915947318 0.012234528549015522 -0.08717567473649979 0.1387133002281189 0.011319462209939957 0.039285123348236084 0.009481607936322689
 0.04360046982765198 -0.023869019001722336 0.1387133002281189 0.011319462209939957 0.01572371833026409 -0.11110159009695053 0.9762887358665466 0.002417749259620905
 0.06891593337059021 0.004559721332043409 0.039285123348236084 0.009481607936322689 0.9762887358665466 0.002417749259620905 0.014457149431109428 -0.09767208248376846
! Port Impedance 50.00000000000000 0.00000000000000 50.00000000000000 0.00000000000000 50.00000000000000 0.00000000000000 50.00000000000000 0.00000000000000
151433628581049.53 0.02185889147222042 -0.10673067718744278 0.9653584361076355 0.002097268123179674 0.037896305322647095 -0.01345131080597639 0.06083965301513672 0.007388012483716011
 0.9653584361076355 0.002097268123179674 0.012235992588102818 -0.10372329503297806 0.1339745670557022 0.010890371166169643 0.0543573796749115 0.03570757433772087
 0.037896305322647095 -0.01345131080597639 0.1339745670557022 0.010890371166169643 0.016227735206484795 -0.11302821338176727 0.977482259273529 0.0022390426602214575
 0.06083965301513672 0.007388012483716011 0.0543573796749115 0.03570757433772087 0.977482259273529 0.0022390426602214575 0.01146248821169138 -0.10003601759672165
! Port Impedance 50.00000000000000 0.00000000000000 50.00000000000000 0.00000000000000 50.00000000000000 0.00000000000000 50.00000000000000 0.00000000000000
154290866856163.66 0.021637791767716408 -0.10307315737009048 0.9614390730857849 0.0028703727293759584 0.02644875831902027 0.0016587008722126484 0.08946990221738815 0.0070532551035285
 0.9614390730857849 0.0028703727293759584 0.014099991880357265 -0.09720174968242645 0.11540655791759491 0.006787111982703209 0.05941358581185341 0.020312359556555748
 0.02644875831902027 0.0016587008722126484 0.11540655791759491 0.006787111982703209 0.01684427261352539 -0.10552587360143661 0.977038562297821 0.001870411797426641
 0.08946990221738815 0.0070532551035285 0.05941358581185341 0.020312359556555748 0.977038562297821 0.001870411797426641 0.014750332571566105 -0.09336735308170319
! Port Impedance 50.00000000000000 0.00000000000000 50.00000000000000 0.00000000000000 50.00000000000000 0.00000000000000 50.00000000000000 0.00000000000000
157148105131277.8 0.02302004210650921 -0.08526957780122757 0.9596965909004211 0.0034685349091887474 0.0402844063937664 0.02780115231871605 0.12376130372285843 0.004507364239543676
 0.9596965909004211 0.0034685349091887474 0.016481852158904076 -0.07227583974599838 0.08614043146371841 2.0424180547706783e-05 0.065970778465271 0.0005770412390120327
 0.0402844063937664 0.02780115231871605 0.08614043146371841 2.0424180547706783e-05 0.01688438095152378 -0.09139690548181534 0.975640058517456 0.0016125234542414546
 0.12376130372285843 0.004507364239543676 0.065970778465271 0.0005770412390120327 0.975640058517456 0.0016125234542414546 0.0197944063693285 -0.07841411232948303
! Port Impedance 50.00000000000000 0.00000000000000 50.00000000000000 0.00000000000000 50.00000000000000 0.00000000000000 50.00000000000000 0.00000000000000
160005343406391.97 0.0225008986890316 -0.07580124586820602 0.959169864654541 0.003306424245238304 0.047345198690891266 0.008769986219704151 0.14341649413108826 0.0008834001491777599
 0.959169864654541 0.003306424245238304 0.014075971208512783 -0.06879598647356033 0.05337800458073616 -0.007252307143062353 0.06460519880056381 -0.0058379280380904675
 0.047345198690891266 0.008769986219704151 0.05337800458073616 -0.007252307143062353 0.015512947924435139 -0.08027276396751404 0.9738660454750061 0.0017114528454840183
 0.14341649413108826 0.0008834001491777599 0.06460519880056381 -0.0058379280380904675 0.9738660454750061 0.0017114528454840183 0.019610734656453133 -0.07414547353982925
! Port Impedance 50.00000000000000 0.00000000000000 50.00000000000000 0.00000000000000 50.00000000000000 0.00000000000000 50.00000000000000 0.00000000000000
162862581681506.1 0.015136555768549442 -0.08264211565256119 0.9602969288825989 0.0027372792828828096 0.05137775465846062 0.0018369305180385709 0.14268243312835693 -0.002746153622865677
 0.9602969288825989 0.0027372792828828096 0.010038980282843113 -0.09204090386629105 0.040660955011844635 -0.008296568877995014 0.06335145980119705 -0.025973817333579063
 0.05137775465846062 0.0018369305180385709 0.040660955011844635 -0.008296568877995014 0.012392072007060051 -0.07501356303691864 0.9725729823112488 0.0020782651845365763
 0.14268243312835693 -0.002746153622865677 0.06335145980119705 -0.025973817333579063 0.9725729823112488 0.0020782651845365763 0.015290197916328907 -0.08368422091007233
